Time[s], Channel 0, Channel 1, Channel 2, Channel 3, Channel 4, Channel 5, Channel 6, Channel 7
0.000000000000000, 0, 1, 1, 1, 1, 1, 1, 1
0.000015400000000, 1, 1, 1, 1, 1, 1, 1, 1
0.000036720000000, 0, 1, 1, 1, 1, 1, 1, 1
0.000058040000000, 0, 0, 1, 1, 1, 1, 1, 1
0.000079400000000, 1, 0, 0, 1, 1, 1, 1, 1
0.000100720000000, 1, 0, 1, 0, 1, 1, 1, 1
0.000122040000000, 0, 0, 0, 0, 1, 1, 1, 1
0.000143400000000, 1, 0, 0, 1, 0, 1, 1, 1
0.000164720000000, 0, 1, 0, 0, 0, 1, 1, 1
0.000186040000000, 1, 0, 0, 1, 1, 0, 1, 1
0.000207400000000, 0, 0, 0, 0, 1, 0, 1, 1
0.000228720000000, 0, 1, 1, 0, 0, 0, 1, 1
0.000250040000000, 1, 1, 0, 1, 1, 1, 0, 1
0.000271400000000, 0, 0, 0, 0, 1, 1, 0, 1
0.000292720000000, 0, 0, 1, 0, 0, 1, 0, 1
0.000314040000000, 0, 0, 0, 1, 1, 0, 0, 1
0.000335400000000, 0, 0, 1, 1, 0, 0, 0, 1
0.000356720000000, 0, 0, 0, 0, 0, 0, 0, 1
0.000378040000000, 1, 1, 0, 0, 1, 1, 1, 0
0.000399360000000, 1, 1, 0, 0, 0, 1, 1, 0
0.000399400000000, 1, 1, 1, 0, 0, 1, 1, 0
0.000420720000000, 1, 1, 0, 1, 1, 0, 1, 0
0.000442040000000, 1, 1, 1, 1, 0, 0, 1, 0
0.000463360000000, 0, 0, 1, 0, 0, 0, 1, 0
0.000484720000000, 1, 0, 0, 1, 1, 1, 0, 0
0.000506040000000, 1, 1, 1, 1, 0, 1, 0, 0
0.000527360000000, 0, 1, 1, 0, 0, 1, 0, 0
0.000548720000000, 1, 0, 1, 1, 1, 0, 0, 0
0.000570040000000, 0, 1, 1, 0, 1, 0, 0, 0
0.000591360000000, 1, 1, 1, 1, 0, 0, 0, 0
0.000612720000000, 0, 1, 0, 1, 0, 0, 0, 0
0.000634040000000, 0, 1, 1, 0, 0, 0, 0, 0
0.000655360000000, 1, 1, 0, 0, 0, 0, 0, 0
0.000676720000000, 1, 0, 0, 0, 0, 0, 0, 0
0.000740720000000, 1, 1, 0, 0, 0, 0, 0, 0
0.000762040000000, 0, 1, 1, 0, 0, 0, 0, 0
0.000783360000000, 0, 1, 0, 1, 0, 0, 0, 0
0.000804720000000, 1, 1, 1, 1, 0, 0, 0, 0
0.000826040000000, 0, 1, 1, 0, 1, 0, 0, 0
0.000847360000000, 1, 0, 1, 1, 1, 0, 0, 0
0.000868720000000, 0, 1, 1, 0, 0, 1, 0, 0
0.000890040000000, 1, 1, 1, 1, 0, 1, 0, 0
0.000911360000000, 1, 0, 0, 1, 1, 1, 0, 0
0.000932720000000, 0, 0, 1, 0, 0, 0, 1, 0
0.000954040000000, 1, 1, 1, 1, 0, 0, 1, 0
0.000975360000000, 1, 1, 0, 1, 1, 0, 1, 0
0.000996720000000, 1, 1, 1, 0, 0, 1, 1, 0
0.001018040000000, 1, 1, 0, 0, 1, 1, 1, 0
0.001039360000000, 0, 0, 0, 0, 0, 0, 0, 1
0.001060720000000, 0, 0, 1, 1, 0, 0, 0, 1
0.001082040000000, 0, 0, 0, 1, 1, 0, 0, 1
0.001103360000000, 0, 0, 1, 0, 0, 1, 0, 1
0.001124720000000, 0, 0, 0, 0, 1, 1, 0, 1
0.001146040000000, 1, 1, 0, 1, 1, 1, 0, 1
0.001167360000000, 0, 1, 1, 0, 0, 0, 1, 1
0.001188720000000, 0, 0, 0, 0, 1, 0, 1, 1
0.001210040000000, 1, 0, 0, 1, 1, 0, 1, 1
0.001231360000000, 0, 1, 0, 0, 0, 1, 1, 1
0.001252720000000, 1, 0, 0, 1, 0, 1, 1, 1
0.001274040000000, 0, 0, 0, 0, 1, 1, 1, 1
0.001295360000000, 1, 0, 1, 0, 1, 1, 1, 1
0.001316720000000, 1, 0, 0, 1, 1, 1, 1, 1
0.001338040000000, 0, 0, 1, 1, 1, 1, 1, 1
0.001359360000000, 0, 1, 1, 1, 1, 1, 1, 1
0.001380720000000, 1, 1, 1, 1, 1, 1, 1, 1
0.001402040000000, 0, 1, 1, 1, 1, 1, 1, 1
0.001423360000000, 0, 0, 1, 1, 1, 1, 1, 1
0.001444720000000, 1, 0, 0, 1, 1, 1, 1, 1
0.001466040000000, 1, 0, 1, 0, 1, 1, 1, 1
0.001487360000000, 0, 0, 0, 0, 1, 1, 1, 1
0.001508720000000, 1, 0, 0, 1, 0, 1, 1, 1
0.001530040000000, 0, 1, 0, 0, 0, 1, 1, 1
0.001551360000000, 1, 0, 0, 1, 1, 0, 1, 1
0.001572720000000, 0, 0, 0, 0, 1, 0, 1, 1
0.001594040000000, 0, 1, 1, 0, 0, 0, 1, 1
0.001615360000000, 1, 1, 0, 1, 1, 1, 0, 1
0.001636720000000, 0, 0, 0, 0, 1, 1, 0, 1
0.001658040000000, 0, 0, 1, 0, 0, 1, 0, 1
0.001679360000000, 0, 0, 0, 1, 1, 0, 0, 1
0.001700720000000, 0, 0, 1, 1, 0, 0, 0, 1
0.001722040000000, 0, 0, 0, 0, 0, 0, 0, 1
0.001743360000000, 1, 1, 0, 0, 1, 1, 1, 0
0.001764720000000, 1, 1, 1, 0, 0, 1, 1, 0
0.001786040000000, 1, 1, 0, 1, 1, 0, 1, 0
0.001807360000000, 1, 1, 1, 1, 0, 0, 1, 0
0.001828720000000, 0, 0, 1, 0, 0, 0, 1, 0
0.001850040000000, 1, 0, 0, 1, 1, 1, 0, 0
0.001871360000000, 1, 1, 1, 1, 0, 1, 0, 0
0.001892720000000, 0, 1, 1, 0, 0, 1, 0, 0
0.001914040000000, 1, 0, 1, 1, 1, 0, 0, 0
0.001935360000000, 0, 1, 1, 0, 1, 0, 0, 0
0.001956680000000, 0, 1, 1, 0, 0, 0, 0, 0
0.001956720000000, 1, 1, 1, 1, 0, 0, 0, 0
0.001978040000000, 0, 1, 0, 1, 0, 0, 0, 0
0.001999360000000, 0, 1, 1, 0, 0, 0, 0, 0
0.002020680000000, 0, 1, 0, 0, 0, 0, 0, 0
0.002020720000000, 1, 1, 0, 0, 0, 0, 0, 0
0.002042040000000, 1, 0, 0, 0, 0, 0, 0, 0
0.002106040000000, 1, 1, 0, 0, 0, 0, 0, 0
0.002127360000000, 0, 1, 1, 0, 0, 0, 0, 0
0.002148680000000, 0, 1, 0, 0, 0, 0, 0, 0
0.002148720000000, 0, 1, 0, 1, 0, 0, 0, 0
0.002170040000000, 1, 1, 1, 1, 0, 0, 0, 0
0.002191360000000, 0, 1, 1, 0, 1, 0, 0, 0
0.002212680000000, 1, 0, 1, 1, 1, 0, 0, 0
0.002234040000000, 0, 1, 1, 0, 0, 1, 0, 0
0.002255360000000, 1, 1, 1, 1, 0, 1, 0, 0
0.002276680000000, 1, 0, 0, 1, 1, 1, 0, 0
0.002298040000000, 0, 0, 1, 0, 0, 0, 1, 0
0.002319360000000, 1, 1, 1, 1, 0, 0, 1, 0
0.002340680000000, 1, 1, 0, 1, 1, 0, 1, 0
0.002362040000000, 1, 1, 1, 0, 0, 1, 1, 0
0.002383360000000, 1, 1, 0, 0, 1, 1, 1, 0
0.002404680000000, 0, 0, 0, 0, 0, 0, 0, 1
0.002426040000000, 0, 0, 1, 1, 0, 0, 0, 1
0.002447360000000, 0, 0, 0, 1, 1, 0, 0, 1
0.002468680000000, 0, 0, 1, 0, 0, 1, 0, 1
0.002490040000000, 0, 0, 0, 0, 1, 1, 0, 1
0.002511360000000, 1, 1, 0, 1, 1, 1, 0, 1
0.002532680000000, 0, 1, 1, 0, 0, 0, 1, 1
0.002554040000000, 0, 0, 0, 0, 1, 0, 1, 1
0.002575360000000, 1, 0, 0, 1, 1, 0, 1, 1
0.002596680000000, 0, 1, 0, 0, 0, 1, 1, 1
0.002618040000000, 1, 0, 0, 1, 0, 1, 1, 1
0.002639360000000, 0, 0, 0, 0, 1, 1, 1, 1
0.002660680000000, 1, 0, 1, 0, 1, 1, 1, 1
0.002682040000000, 1, 0, 0, 1, 1, 1, 1, 1
0.002703360000000, 0, 0, 1, 1, 1, 1, 1, 1
0.002724680000000, 0, 1, 1, 1, 1, 1, 1, 1
0.002746040000000, 1, 1, 1, 1, 1, 1, 1, 1
0.002767360000000, 0, 1, 1, 1, 1, 1, 1, 1
0.002788680000000, 0, 0, 1, 1, 1, 1, 1, 1
0.002810040000000, 1, 0, 0, 1, 1, 1, 1, 1
0.002831360000000, 1, 0, 1, 0, 1, 1, 1, 1
0.002852680000000, 0, 0, 0, 0, 1, 1, 1, 1
0.002874040000000, 1, 0, 0, 1, 0, 1, 1, 1
0.002895360000000, 0, 1, 0, 0, 0, 1, 1, 1
0.002916680000000, 1, 0, 0, 1, 1, 0, 1, 1
0.002938040000000, 0, 0, 0, 0, 1, 0, 1, 1
0.002959360000000, 0, 1, 1, 0, 0, 0, 1, 1
0.002980680000000, 1, 1, 0, 1, 1, 1, 0, 1
0.003002040000000, 0, 0, 0, 0, 1, 1, 0, 1
0.003023360000000, 0, 0, 1, 0, 0, 1, 0, 1
0.003044680000000, 0, 0, 0, 1, 1, 0, 0, 1
0.003066040000000, 0, 0, 1, 1, 0, 0, 0, 1
0.003087360000000, 0, 0, 0, 0, 0, 0, 0, 1
0.003108680000000, 1, 1, 0, 0, 1, 1, 1, 0
0.003130040000000, 1, 1, 1, 0, 0, 1, 1, 0
0.003151360000000, 1, 1, 0, 1, 1, 0, 1, 0
0.003172680000000, 1, 1, 1, 1, 0, 0, 1, 0
0.003194040000000, 0, 0, 1, 0, 0, 0, 1, 0
0.003215360000000, 1, 0, 0, 1, 1, 1, 0, 0
0.003236680000000, 1, 1, 1, 1, 0, 1, 0, 0
0.003258040000000, 0, 1, 1, 0, 0, 1, 0, 0
0.003279360000000, 1, 0, 1, 1, 1, 0, 0, 0
0.003300680000000, 0, 1, 1, 0, 1, 0, 0, 0
0.003322040000000, 1, 1, 1, 1, 0, 0, 0, 0
0.003343360000000, 0, 1, 0, 1, 0, 0, 0, 0
0.003364680000000, 0, 1, 1, 0, 0, 0, 0, 0
0.003386040000000, 1, 1, 0, 0, 0, 0, 0, 0
0.003407360000000, 1, 0, 0, 0, 0, 0, 0, 0
0.003471360000000, 1, 1, 0, 0, 0, 0, 0, 0
0.003492680000000, 0, 1, 1, 0, 0, 0, 0, 0
0.003514040000000, 0, 1, 0, 1, 0, 0, 0, 0
0.003535360000000, 1, 1, 1, 1, 0, 0, 0, 0
0.003556680000000, 0, 1, 1, 0, 1, 0, 0, 0
0.003578000000000, 0, 0, 1, 0, 1, 0, 0, 0
0.003578040000000, 1, 0, 1, 1, 1, 0, 0, 0
0.003599360000000, 0, 1, 1, 0, 0, 1, 0, 0
0.003620680000000, 1, 1, 1, 1, 0, 1, 0, 0
0.003642000000000, 1, 0, 1, 1, 0, 1, 0, 0
0.003642040000000, 1, 0, 0, 1, 1, 1, 0, 0
0.003663360000000, 0, 0, 1, 0, 0, 0, 1, 0
0.003684680000000, 1, 1, 1, 1, 0, 0, 1, 0
0.003706000000000, 1, 1, 0, 1, 1, 0, 1, 0
0.003727360000000, 1, 1, 1, 0, 0, 1, 1, 0
0.003748680000000, 1, 1, 0, 0, 1, 1, 1, 0
0.003770000000000, 0, 0, 1, 0, 0, 0, 0, 1
0.003770040000000, 0, 0, 0, 0, 0, 0, 0, 1
0.003791360000000, 0, 0, 1, 1, 0, 0, 0, 1
0.003812680000000, 0, 0, 0, 1, 1, 0, 0, 1
0.003834000000000, 0, 0, 1, 0, 0, 1, 0, 1
0.003855360000000, 0, 0, 0, 0, 1, 1, 0, 1
0.003876680000000, 1, 1, 0, 1, 1, 1, 0, 1
0.003898000000000, 0, 1, 1, 0, 0, 0, 1, 1
0.003919360000000, 0, 0, 0, 0, 1, 0, 1, 1
0.003940680000000, 1, 0, 0, 1, 1, 0, 1, 1
0.003962000000000, 0, 1, 0, 0, 0, 1, 1, 1
0.003983360000000, 1, 0, 0, 1, 0, 1, 1, 1
0.004004680000000, 0, 0, 0, 0, 1, 1, 1, 1
0.004026000000000, 1, 0, 1, 0, 1, 1, 1, 1
0.004047360000000, 1, 0, 0, 1, 1, 1, 1, 1
0.004068680000000, 0, 0, 1, 1, 1, 1, 1, 1
0.004090000000000, 0, 1, 1, 1, 1, 1, 1, 1
0.004111360000000, 1, 1, 1, 1, 1, 1, 1, 1
0.004132680000000, 0, 1, 1, 1, 1, 1, 1, 1
0.004154000000000, 0, 0, 1, 1, 1, 1, 1, 1
0.004175360000000, 1, 0, 0, 1, 1, 1, 1, 1
0.004196680000000, 1, 0, 1, 0, 1, 1, 1, 1
0.004218000000000, 0, 0, 0, 0, 1, 1, 1, 1
0.004239360000000, 1, 0, 0, 1, 0, 1, 1, 1
0.004260680000000, 0, 1, 0, 0, 0, 1, 1, 1
0.004282000000000, 1, 0, 0, 1, 1, 0, 1, 1
0.004303360000000, 0, 0, 0, 0, 1, 0, 1, 1
0.004324680000000, 0, 1, 1, 0, 0, 0, 1, 1
0.004346000000000, 1, 1, 0, 1, 1, 1, 0, 1
0.004367360000000, 0, 0, 0, 0, 1, 1, 0, 1
0.004388680000000, 0, 0, 1, 0, 0, 1, 0, 1
0.004410000000000, 0, 0, 0, 1, 1, 0, 0, 1
0.004431360000000, 0, 0, 1, 1, 0, 0, 0, 1
0.004452680000000, 0, 0, 0, 0, 0, 0, 0, 1
0.004474000000000, 1, 1, 0, 0, 1, 1, 1, 0
0.004495360000000, 1, 1, 1, 0, 0, 1, 1, 0
0.004516680000000, 1, 1, 0, 1, 1, 0, 1, 0
0.004538000000000, 1, 1, 1, 1, 0, 0, 1, 0
0.004559360000000, 0, 0, 1, 0, 0, 0, 1, 0
0.004580680000000, 1, 0, 0, 1, 1, 1, 0, 0
0.004602000000000, 1, 1, 1, 1, 0, 1, 0, 0
0.004623360000000, 0, 1, 1, 0, 0, 1, 0, 0
0.004644680000000, 1, 0, 1, 1, 1, 0, 0, 0
0.004666000000000, 0, 1, 1, 0, 1, 0, 0, 0
0.004687360000000, 1, 1, 1, 1, 0, 0, 0, 0
0.004708680000000, 0, 1, 0, 1, 0, 0, 0, 0
0.004730000000000, 0, 1, 1, 0, 0, 0, 0, 0
0.004751360000000, 1, 1, 0, 0, 0, 0, 0, 0
0.004772680000000, 1, 0, 0, 0, 0, 0, 0, 0
0.004836680000000, 1, 1, 0, 0, 0, 0, 0, 0
0.004858000000000, 0, 1, 1, 0, 0, 0, 0, 0
0.004879360000000, 0, 1, 0, 1, 0, 0, 0, 0
0.004900680000000, 1, 1, 1, 1, 0, 0, 0, 0
0.004922000000000, 0, 1, 1, 0, 1, 0, 0, 0
0.004943360000000, 1, 0, 1, 1, 1, 0, 0, 0
0.004964680000000, 0, 1, 1, 0, 0, 1, 0, 0
0.004986000000000, 1, 1, 1, 1, 0, 1, 0, 0
0.005007360000000, 1, 0, 0, 1, 1, 1, 0, 0
0.005028680000000, 0, 0, 1, 0, 0, 0, 1, 0
0.005050000000000, 1, 1, 1, 1, 0, 0, 1, 0
0.005071360000000, 1, 1, 0, 1, 1, 0, 1, 0
0.005092680000000, 1, 1, 1, 0, 0, 1, 1, 0
0.005114000000000, 1, 1, 0, 0, 1, 1, 1, 0
0.005135320000000, 0, 0, 1, 0, 1, 1, 0, 1
0.005135360000000, 0, 0, 0, 0, 0, 0, 0, 1
0.005156680000000, 0, 0, 1, 1, 0, 0, 0, 1
0.005178000000000, 0, 0, 0, 1, 1, 0, 0, 1
0.005199360000000, 0, 0, 1, 0, 0, 1, 0, 1
0.005220680000000, 0, 0, 0, 0, 1, 1, 0, 1
0.005242000000000, 1, 1, 0, 1, 1, 1, 0, 1
0.005263360000000, 0, 1, 1, 0, 0, 0, 1, 1
0.005284680000000, 0, 0, 0, 0, 1, 0, 1, 1
0.005306000000000, 1, 0, 0, 1, 1, 0, 1, 1
0.005327320000000, 0, 1, 0, 0, 1, 0, 1, 1
0.005327360000000, 0, 1, 0, 0, 0, 1, 1, 1
0.005348680000000, 1, 0, 0, 1, 0, 1, 1, 1
0.005370000000000, 0, 0, 0, 0, 1, 1, 1, 1
0.005391360000000, 1, 0, 1, 0, 1, 1, 1, 1
0.005412680000000, 1, 0, 0, 1, 1, 1, 1, 1
0.005434000000000, 0, 0, 1, 1, 1, 1, 1, 1
0.005455320000000, 0, 1, 1, 1, 1, 1, 1, 1
0.005476680000000, 1, 1, 1, 1, 1, 1, 1, 1
0.005498000000000, 0, 1, 1, 1, 1, 1, 1, 1
0.005519320000000, 0, 0, 1, 1, 1, 1, 1, 1
0.005540680000000, 1, 0, 0, 1, 1, 1, 1, 1
0.005562000000000, 1, 0, 1, 0, 1, 1, 1, 1
0.005583320000000, 0, 0, 0, 0, 1, 1, 1, 1
0.005604680000000, 1, 0, 0, 1, 0, 1, 1, 1
0.005626000000000, 0, 1, 0, 0, 0, 1, 1, 1
0.005647320000000, 1, 0, 0, 1, 1, 0, 1, 1
0.005668680000000, 0, 0, 0, 0, 1, 0, 1, 1
0.005690000000000, 0, 1, 1, 0, 0, 0, 1, 1
0.005711320000000, 1, 1, 0, 1, 1, 1, 0, 1
0.005732680000000, 0, 0, 0, 0, 1, 1, 0, 1
0.005754000000000, 0, 0, 1, 0, 0, 1, 0, 1
0.005775320000000, 0, 0, 0, 1, 1, 0, 0, 1
0.005796680000000, 0, 0, 1, 1, 0, 0, 0, 1
0.005818000000000, 0, 0, 0, 0, 0, 0, 0, 1
0.005839320000000, 1, 1, 0, 0, 1, 1, 1, 0
0.005860680000000, 1, 1, 1, 0, 0, 1, 1, 0
0.005882000000000, 1, 1, 0, 1, 1, 0, 1, 0
0.005903320000000, 1, 1, 1, 1, 0, 0, 1, 0
0.005924680000000, 0, 0, 1, 0, 0, 0, 1, 0
0.005946000000000, 1, 0, 0, 1, 1, 1, 0, 0
0.005967320000000, 1, 1, 1, 1, 0, 1, 0, 0
0.005988680000000, 0, 1, 1, 0, 0, 1, 0, 0
0.006010000000000, 1, 0, 1, 1, 1, 0, 0, 0
0.006031320000000, 0, 1, 1, 0, 1, 0, 0, 0
0.006052680000000, 1, 1, 1, 1, 0, 0, 0, 0
0.006074000000000, 0, 1, 0, 1, 0, 0, 0, 0
0.006095320000000, 0, 1, 1, 0, 0, 0, 0, 0
0.006116680000000, 1, 1, 0, 0, 0, 0, 0, 0
0.006138000000000, 1, 0, 0, 0, 0, 0, 0, 0
0.006202000000000, 1, 1, 0, 0, 0, 0, 0, 0
0.006223320000000, 0, 1, 1, 0, 0, 0, 0, 0
0.006244680000000, 0, 1, 0, 1, 0, 0, 0, 0
0.006266000000000, 1, 1, 1, 1, 0, 0, 0, 0
0.006287320000000, 0, 1, 1, 0, 1, 0, 0, 0
0.006308680000000, 1, 0, 1, 1, 1, 0, 0, 0
0.006330000000000, 0, 1, 1, 0, 0, 1, 0, 0
0.006351320000000, 1, 1, 1, 1, 0, 1, 0, 0
0.006372680000000, 1, 0, 0, 1, 1, 1, 0, 0
0.006394000000000, 0, 0, 1, 0, 0, 0, 1, 0
0.006415320000000, 1, 1, 1, 1, 0, 0, 1, 0
0.006436680000000, 1, 1, 0, 1, 1, 0, 1, 0
0.006458000000000, 1, 1, 1, 0, 0, 1, 1, 0
0.006479320000000, 1, 1, 0, 0, 1, 1, 1, 0
0.006500680000000, 0, 0, 0, 0, 0, 0, 0, 1
0.006522000000000, 0, 0, 1, 1, 0, 0, 0, 1
0.006543320000000, 0, 0, 0, 1, 1, 0, 0, 1
0.006564680000000, 0, 0, 1, 0, 0, 1, 0, 1
0.006586000000000, 0, 0, 0, 0, 1, 1, 0, 1
0.006607320000000, 1, 1, 0, 1, 1, 1, 0, 1
0.006628680000000, 0, 1, 1, 0, 0, 0, 1, 1
0.006650000000000, 0, 0, 0, 0, 1, 0, 1, 1
0.006671320000000, 1, 0, 0, 1, 1, 0, 1, 1
0.006692680000000, 0, 1, 0, 0, 0, 1, 1, 1
0.006714000000000, 1, 0, 0, 1, 0, 1, 1, 1
0.006735320000000, 0, 0, 0, 0, 1, 1, 1, 1
0.006756680000000, 1, 0, 1, 0, 1, 1, 1, 1
0.006778000000000, 1, 0, 0, 1, 1, 1, 1, 1
0.006799320000000, 0, 0, 1, 1, 1, 1, 1, 1
0.006820680000000, 0, 1, 1, 1, 1, 1, 1, 1
0.006842000000000, 1, 1, 1, 1, 1, 1, 1, 1
0.006863320000000, 0, 1, 1, 1, 1, 1, 1, 1
0.006884680000000, 0, 0, 1, 1, 1, 1, 1, 1
0.006906000000000, 1, 0, 0, 1, 1, 1, 1, 1
0.006927320000000, 1, 0, 1, 0, 1, 1, 1, 1
0.006948640000000, 1, 0, 0, 0, 1, 1, 1, 1
0.006948680000000, 0, 0, 0, 0, 1, 1, 1, 1
0.006970000000000, 1, 0, 0, 1, 0, 1, 1, 1
0.006991320000000, 0, 1, 0, 0, 0, 1, 1, 1
0.007012640000000, 0, 0, 0, 1, 1, 0, 1, 1
0.007012680000000, 1, 0, 0, 1, 1, 0, 1, 1
0.007034000000000, 0, 0, 0, 0, 1, 0, 1, 1
0.007055320000000, 0, 1, 1, 0, 0, 0, 1, 1
0.007076640000000, 0, 1, 0, 0, 1, 0, 0, 1
0.007076680000000, 1, 1, 0, 1, 1, 1, 0, 1
0.007098000000000, 0, 0, 0, 0, 1, 1, 0, 1
0.007119320000000, 0, 0, 1, 0, 0, 1, 0, 1
0.007140640000000, 0, 0, 0, 1, 1, 0, 0, 1
0.007162000000000, 0, 0, 1, 1, 0, 0, 0, 1
0.007183320000000, 0, 0, 0, 0, 0, 0, 0, 1
0.007204640000000, 1, 1, 0, 0, 1, 1, 1, 0
0.007226000000000, 1, 1, 1, 0, 0, 1, 1, 0
0.007247320000000, 1, 1, 0, 1, 1, 0, 1, 0
0.007268640000000, 1, 1, 1, 1, 0, 0, 1, 0
0.007290000000000, 0, 0, 1, 0, 0, 0, 1, 0
0.007311320000000, 1, 0, 0, 1, 1, 1, 0, 0
0.007332640000000, 1, 1, 1, 1, 0, 1, 0, 0
0.007354000000000, 0, 1, 1, 0, 0, 1, 0, 0
0.007375320000000, 1, 0, 1, 1, 1, 0, 0, 0
0.007396640000000, 0, 1, 1, 0, 1, 0, 0, 0
0.007418000000000, 1, 1, 1, 1, 0, 0, 0, 0
0.007439320000000, 0, 1, 0, 1, 0, 0, 0, 0
0.007460640000000, 0, 1, 1, 0, 0, 0, 0, 0
0.007482000000000, 1, 1, 0, 0, 0, 0, 0, 0
0.007503320000000, 1, 0, 0, 0, 0, 0, 0, 0
0.007567320000000, 1, 1, 0, 0, 0, 0, 0, 0
0.007588640000000, 0, 1, 1, 0, 0, 0, 0, 0
0.007610000000000, 0, 1, 0, 1, 0, 0, 0, 0
0.007631320000000, 1, 1, 1, 1, 0, 0, 0, 0
0.007652640000000, 0, 1, 1, 0, 1, 0, 0, 0
0.007674000000000, 1, 0, 1, 1, 1, 0, 0, 0
0.007695320000000, 0, 1, 1, 0, 0, 1, 0, 0
0.007716640000000, 1, 1, 1, 1, 0, 1, 0, 0
0.007738000000000, 1, 0, 0, 1, 1, 1, 0, 0
0.007759320000000, 0, 0, 1, 0, 0, 0, 1, 0
0.007780640000000, 1, 1, 1, 1, 0, 0, 1, 0
0.007802000000000, 1, 1, 0, 1, 1, 0, 1, 0
0.007823320000000, 1, 1, 1, 0, 0, 1, 1, 0
0.007844640000000, 1, 1, 0, 0, 1, 1, 1, 0
0.007866000000000, 0, 0, 0, 0, 0, 0, 0, 1
0.007887320000000, 0, 0, 1, 1, 0, 0, 0, 1
0.007908640000000, 0, 0, 0, 1, 1, 0, 0, 1
0.007930000000000, 0, 0, 1, 0, 0, 1, 0, 1
0.007951320000000, 0, 0, 0, 0, 1, 1, 0, 1
0.007972640000000, 1, 1, 0, 1, 1, 1, 0, 1
0.007994000000000, 0, 1, 1, 0, 0, 0, 1, 1
0.008015320000000, 0, 0, 0, 0, 1, 0, 1, 1
0.008036640000000, 1, 0, 0, 1, 1, 0, 1, 1
0.008058000000000, 0, 1, 0, 0, 0, 1, 1, 1
0.008079320000000, 1, 0, 0, 1, 0, 1, 1, 1
0.008100640000000, 0, 0, 0, 0, 1, 1, 1, 1
0.008122000000000, 1, 0, 1, 0, 1, 1, 1, 1
0.008143320000000, 1, 0, 0, 1, 1, 1, 1, 1
0.008164640000000, 0, 0, 1, 1, 1, 1, 1, 1
0.008186000000000, 0, 1, 1, 1, 1, 1, 1, 1
0.008207320000000, 1, 1, 1, 1, 1, 1, 1, 1
0.008228640000000, 0, 1, 1, 1, 1, 1, 1, 1
0.008250000000000, 0, 0, 1, 1, 1, 1, 1, 1
0.008271320000000, 1, 0, 0, 1, 1, 1, 1, 1
0.008292640000000, 1, 0, 1, 0, 1, 1, 1, 1
0.008314000000000, 0, 0, 0, 0, 1, 1, 1, 1
0.008335320000000, 1, 0, 0, 1, 0, 1, 1, 1
0.008356640000000, 0, 1, 0, 0, 0, 1, 1, 1
0.008378000000000, 1, 0, 0, 1, 1, 0, 1, 1
0.008399320000000, 0, 0, 0, 0, 1, 0, 1, 1
0.008420640000000, 0, 1, 1, 0, 0, 0, 1, 1
0.008442000000000, 1, 1, 0, 1, 1, 1, 0, 1
0.008463320000000, 0, 0, 0, 0, 1, 1, 0, 1
0.008484640000000, 0, 0, 1, 0, 0, 1, 0, 1
0.008506000000000, 0, 0, 0, 1, 1, 0, 0, 1
0.008527320000000, 0, 0, 1, 1, 0, 0, 0, 1
0.008548640000000, 0, 0, 0, 0, 0, 0, 0, 1
0.008569960000000, 0, 0, 0, 0, 0, 0, 0, 0
0.008570000000000, 1, 1, 0, 0, 1, 1, 1, 0
0.008591320000000, 1, 1, 1, 0, 0, 1, 1, 0
0.008612640000000, 1, 1, 0, 1, 1, 0, 1, 0
0.008633960000000, 1, 1, 1, 1, 0, 0, 1, 0
0.008655320000000, 0, 0, 1, 0, 0, 0, 1, 0
0.008676640000000, 1, 0, 0, 1, 1, 1, 0, 0
0.008697960000000, 1, 1, 1, 1, 0, 1, 0, 0
0.008719320000000, 0, 1, 1, 0, 0, 1, 0, 0
0.008740640000000, 1, 0, 1, 1, 1, 0, 0, 0
0.008761960000000, 0, 1, 1, 0, 1, 0, 0, 0
0.008783320000000, 1, 1, 1, 1, 0, 0, 0, 0
0.008804640000000, 0, 1, 0, 1, 0, 0, 0, 0
0.008825960000000, 0, 1, 1, 0, 0, 0, 0, 0
0.008847320000000, 1, 1, 0, 0, 0, 0, 0, 0
0.008868640000000, 1, 0, 0, 0, 0, 0, 0, 0
0.008932640000000, 1, 1, 0, 0, 0, 0, 0, 0
0.008953960000000, 0, 1, 1, 0, 0, 0, 0, 0
0.008975320000000, 0, 1, 0, 1, 0, 0, 0, 0
0.008996640000000, 1, 1, 1, 1, 0, 0, 0, 0
0.009017960000000, 0, 1, 1, 0, 1, 0, 0, 0
0.009039320000000, 1, 0, 1, 1, 1, 0, 0, 0
0.009060640000000, 0, 1, 1, 0, 0, 1, 0, 0
0.009081960000000, 1, 1, 1, 1, 0, 1, 0, 0
0.009103320000000, 1, 0, 0, 1, 1, 1, 0, 0
0.009124640000000, 0, 0, 1, 0, 0, 0, 1, 0
0.009145960000000, 1, 1, 1, 1, 0, 0, 1, 0
0.009167320000000, 1, 1, 0, 1, 1, 0, 1, 0
0.009188640000000, 1, 1, 1, 0, 0, 1, 1, 0
0.009209960000000, 1, 1, 0, 0, 1, 1, 1, 0
0.009231320000000, 0, 0, 0, 0, 0, 0, 0, 1
0.009252640000000, 0, 0, 1, 1, 0, 0, 0, 1
0.009273960000000, 0, 0, 0, 1, 1, 0, 0, 1
0.009295320000000, 0, 0, 1, 0, 0, 1, 0, 1
0.009316640000000, 0, 0, 0, 0, 1, 1, 0, 1
0.009337960000000, 1, 1, 0, 1, 1, 1, 0, 1
0.009359320000000, 0, 1, 1, 0, 0, 0, 1, 1
0.009380640000000, 0, 0, 0, 0, 1, 0, 1, 1
0.009401960000000, 1, 0, 0, 1, 1, 0, 1, 1
0.009423320000000, 0, 1, 0, 0, 0, 1, 1, 1
0.009444640000000, 1, 0, 0, 1, 0, 1, 1, 1
0.009465960000000, 0, 0, 0, 0, 1, 1, 1, 1
0.009487320000000, 1, 0, 1, 0, 1, 1, 1, 1
0.009508640000000, 1, 0, 0, 1, 1, 1, 1, 1
0.009529960000000, 0, 0, 1, 1, 1, 1, 1, 1
0.009551320000000, 0, 1, 1, 1, 1, 1, 1, 1
0.009572640000000, 1, 1, 1, 1, 1, 1, 1, 1
0.009593960000000, 0, 1, 1, 1, 1, 1, 1, 1
0.009615320000000, 0, 0, 1, 1, 1, 1, 1, 1
0.009636640000000, 1, 0, 0, 1, 1, 1, 1, 1
0.009657960000000, 1, 0, 1, 0, 1, 1, 1, 1
0.009679320000000, 0, 0, 0, 0, 1, 1, 1, 1
0.009700640000000, 1, 0, 0, 1, 0, 1, 1, 1
0.009721960000000, 0, 1, 0, 0, 0, 1, 1, 1
0.009743320000000, 1, 0, 0, 1, 1, 0, 1, 1
0.009764640000000, 0, 0, 0, 0, 1, 0, 1, 1
0.009785960000000, 0, 1, 1, 0, 0, 0, 1, 1
0.009807320000000, 1, 1, 0, 1, 1, 1, 0, 1
0.009828640000000, 0, 0, 0, 0, 1, 1, 0, 1
0.009849960000000, 0, 0, 1, 0, 0, 1, 0, 1
0.009871320000000, 0, 0, 0, 1, 1, 0, 0, 1
0.009892640000000, 0, 0, 1, 1, 0, 0, 0, 1
0.009913960000000, 0, 0, 0, 0, 0, 0, 0, 1
0.009935320000000, 1, 1, 0, 0, 1, 1, 1, 0
0.009956640000000, 1, 1, 1, 0, 0, 1, 1, 0
0.009977960000000, 1, 1, 0, 1, 1, 0, 1, 0
0.009999320000000, 1, 1, 1, 1, 0, 0, 1, 0
0.010020640000000, 0, 0, 1, 0, 0, 0, 1, 0
0.010041960000000, 1, 0, 0, 1, 1, 1, 0, 0
0.010063320000000, 1, 1, 1, 1, 0, 1, 0, 0
0.010084640000000, 0, 1, 1, 0, 0, 1, 0, 0
